T09E8 000:006.600   SEGGER J-Link V6.70e Log File
T09E8 000:007.285   DLL Compiled: Apr 17 2020 17:55:05
T09E8 000:007.288   Logging started @ 2025-05-13 06:11
T09E8 000:007.295 JLINK_SetWarnOutHandler(...)
T09E8 000:007.300 - 0.007ms
T09E8 000:007.412 JLINK_OpenEx(...)
T09E8 000:009.237   Firmware: J-Link V9 compiled May  7 2021 16:26:12
T09E8 000:009.613   Decompressing FW timestamp took 227 us
T09E8 000:016.008   Hardware: V9.20
T09E8 000:016.033   S/N: 4294967295
T09E8 000:016.038   OEM: SEGGER
T09E8 000:016.043   Feature(s): RDI, GDB, FlashDL, FlashBP, JFlash
T09E8 000:016.980   TELNET listener socket opened on port 19021
T09E8 000:017.054   WEBSRV Starting webserver
T09E8 000:017.203   WEBSRV Webserver running on local port 19080
T09E8 000:017.209 - 9.799ms returns "O.K."
T09E8 000:017.223 JLINK_GetEmuCaps()
T09E8 000:017.227 - 0.006ms returns 0xB9FF7BBF
T09E8 000:017.235 JLINK_TIF_GetAvailable(...)
T09E8 000:017.372 - 0.143ms
T09E8 000:017.383 JLINK_SetErrorOutHandler(...)
T09E8 000:017.387 - 0.005ms
T09E8 000:017.399 JLINK_ExecCommand("ProjectFile = "E:\projects\myGithub\IUT\06\Microprocesor-Lab\Microlab\7\GLCD\MDK-ARM\JLinkSettings.ini"", ...). 
T09E8 000:027.144 - 9.760ms returns 0x00
T09E8 000:029.094 JLINK_ExecCommand("Device = STM32F407VGTx", ...). 
T09E8 000:031.944   Device "STM32F407VG" selected.
T09E8 000:032.191 - 3.108ms returns 0x00
T09E8 000:032.228 JLINK_ExecCommand("DisableConnectionTimeout", ...). 
T09E8 000:032.236 - 0.004ms returns 0x01
T09E8 000:032.242 JLINK_GetHardwareVersion()
T09E8 000:032.246 - 0.005ms returns 0x16760
T09E8 000:032.250 JLINK_GetDLLVersion()  returns 67005
T09E8 000:032.260 JLINK_GetFirmwareString(...)
T09E8 000:032.265 - 0.006ms
T09E8 000:038.646 JLINK_GetDLLVersion()  returns 67005
T09E8 000:038.661 JLINK_GetCompileDateTime()
T09E8 000:038.664 - 0.005ms
T09E8 000:043.050 JLINK_GetFirmwareString(...)
T09E8 000:043.066 - 0.018ms
T09E8 000:044.758 JLINK_GetHardwareVersion()
T09E8 000:044.769 - 0.013ms returns 0x16760
T09E8 000:051.271 JLINK_TIF_Select(JLINKARM_TIF_JTAG)
T09E8 000:052.054 - 0.791ms returns 0x00
T09E8 000:052.076 JLINK_SetSpeed(5000)
T09E8 000:052.141 - 0.067ms
T09E8 000:052.147 JLINK_GetIdData(pIdData)
T09E8 000:055.313   TotalIRLen = 9, IRPrint = 0x0011
T09E8 000:057.407   JTAG chain detection found 2 devices:
T09E8 000:058.944    #0 Id: 0x4BA00477, IRLen: 04, CoreSight JTAG-DP
T09E8 000:060.667    #1 Id: 0x06413041, IRLen: 05, STM32 Boundary Scan
T09E8 000:067.364   TotalIRLen = 9, IRPrint = 0x0011
T09E8 000:069.502   JTAG chain detection found 2 devices:
T09E8 000:072.040    #0 Id: 0x4BA00477, IRLen: 04, CoreSight JTAG-DP
T09E8 000:073.602    #1 Id: 0x06413041, IRLen: 05, STM32 Boundary Scan
T09E8 000:077.153   Cannot determine DP version. Assuming DPv0
T09E8 000:078.714   Scanning AP map to find all available APs
T09E8 000:080.787   AP[1]: Stopped AP scan as end of AP map has been reached
T09E8 000:084.462   AP[0]: AHB-AP (IDR: 0x24770011)
T09E8 000:086.285   Iterating through AP map to find AHB-AP to use
T09E8 000:088.761   AP[0]: Core found
T09E8 000:090.407   AP[0]: AHB-AP ROM base: 0xE00FF000
T09E8 000:092.600   CPUID register: 0x410FC241. Implementer code: 0x41 (ARM)
T09E8 000:094.172   Found Cortex-M4 r0p1, Little endian.
T09E8 000:094.505    -- Max. mem block: 0x00010E60
T09E8 000:094.527   CPU_ReadMem(4 bytes @ 0xE000EDF0)
T09E8 000:095.710   CPU_WriteMem(4 bytes @ 0xE000EDF0)
T09E8 000:095.966   CPU_ReadMem(4 bytes @ 0xE0002000)
T09E8 000:098.218   FPUnit: 6 code (BP) slots and 2 literal slots
T09E8 000:098.234   CPU_ReadMem(4 bytes @ 0xE000EDFC)
T09E8 000:098.575   CPU_WriteMem(4 bytes @ 0xE000EDFC)
T09E8 000:098.790   CPU_ReadMem(4 bytes @ 0xE0001000)
T09E8 000:099.038   CPU_WriteMem(4 bytes @ 0xE0001000)
T09E8 000:099.233   CPU_ReadMem(4 bytes @ 0xE000ED88)
T09E8 000:099.477   CPU_WriteMem(4 bytes @ 0xE000ED88)
T09E8 000:099.698   CPU_ReadMem(4 bytes @ 0xE000ED88)
T09E8 000:100.083   CPU_WriteMem(4 bytes @ 0xE000ED88)
T09E8 000:102.090   CoreSight components:
T09E8 000:103.678   ROMTbl[0] @ E00FF000
T09E8 000:103.734   CPU_ReadMem(64 bytes @ 0xE00FF000)
T09E8 000:104.426   CPU_ReadMem(32 bytes @ 0xE000EFE0)
T09E8 000:106.531   ROMTbl[0][0]: E000E000, CID: B105E00D, PID: 000BB00C SCS-M7
T09E8 000:106.546   CPU_ReadMem(32 bytes @ 0xE0001FE0)
T09E8 000:108.612   ROMTbl[0][1]: E0001000, CID: B105E00D, PID: 003BB002 DWT
T09E8 000:108.629   CPU_ReadMem(32 bytes @ 0xE0002FE0)
T09E8 000:110.777   ROMTbl[0][2]: E0002000, CID: B105E00D, PID: 002BB003 FPB
T09E8 000:110.795   CPU_ReadMem(32 bytes @ 0xE0000FE0)
T09E8 000:112.909   ROMTbl[0][3]: E0000000, CID: B105E00D, PID: 003BB001 ITM
T09E8 000:112.925   CPU_ReadMem(32 bytes @ 0xE0040FE0)
T09E8 000:115.011   ROMTbl[0][4]: E0040000, CID: B105900D, PID: 000BB9A1 TPIU
T09E8 000:115.026   CPU_ReadMem(32 bytes @ 0xE0041FE0)
T09E8 000:117.102   ROMTbl[0][5]: E0041000, CID: B105900D, PID: 000BB925 ETM
T09E8 000:117.145   pIdData->ScanLen=9
T09E8 000:117.150   
T09E8 000:117.154   pIdData->NumDevices=2
T09E8 000:117.158   
T09E8 000:117.162   pIdData->aId[0]=0x4BA00477
T09E8 000:117.166   
T09E8 000:117.170   pIdData->aIrRead[0]=0
T09E8 000:117.174   
T09E8 000:117.177   pIdData->aScanLen[0]=0
T09E8 000:117.182   
T09E8 000:117.185   pIdData->aScanRead[0]=0
T09E8 000:117.190   
T09E8 000:117.193 - 65.048ms
T09E8 000:117.238 JLINK_JTAG_GetDeviceID(DeviceIndex = 0)
T09E8 000:117.242 - 0.006ms returns 0x4BA00477
T09E8 000:117.247 JLINK_JTAG_GetDeviceInfo(DeviceIndex = 0)
T09E8 000:117.251 - 0.006ms returns 0x00
T09E8 000:117.256 JLINK_JTAG_GetDeviceID(DeviceIndex = 1)
T09E8 000:117.259 - 0.005ms returns 0x6413041
T09E8 000:117.263 JLINK_JTAG_GetDeviceInfo(DeviceIndex = 1)
T09E8 000:117.267 - 0.005ms returns 0x00
T09E8 000:117.272 JLINK_GetDLLVersion()  returns 67005
T09E8 000:117.277 JLINK_CORE_GetFound()
T09E8 000:117.280 - 0.005ms returns 0xE0000FF
T09E8 000:117.285 JLINK_GetDebugInfo(0x100 = JLINKARM_ROM_TABLE_ADDR_INDEX)
T09E8 000:117.290   Value=0xE00FF000
T09E8 000:117.295 - 0.011ms returns 0x00
T09E8 000:118.945 JLINK_GetDebugInfo(0x100 = JLINKARM_ROM_TABLE_ADDR_INDEX)
T09E8 000:118.955   Value=0xE00FF000
T09E8 000:118.961 - 0.017ms returns 0x00
T09E8 000:118.965 JLINK_GetDebugInfo(0x101 = JLINKARM_DEBUG_INFO_ETM_ADDR_INDEX)
T09E8 000:118.969   Value=0xE0041000
T09E8 000:118.980 - 0.016ms returns 0x00
T09E8 000:118.985   JLINK_ReadMemEx(0xE0041FD0, 0x0020 Bytes, ..., Flags = 0x02000004)
T09E8 000:119.269   CPU_ReadMem(32 bytes @ 0xE0041FD0)
T09E8 000:119.719   Data:  04 00 00 00 00 00 00 00 00 00 00 00 00 00 00 00 ...
T09E8 000:119.731 - 0.748ms returns 0x20
T09E8 000:119.738 JLINK_GetDebugInfo(0x102 = JLINKARM_DEBUG_INFO_MTB_ADDR_INDEX)
T09E8 000:119.743   Value=0x00000000
T09E8 000:119.748 - 0.011ms returns 0x00
T09E8 000:119.752 JLINK_GetDebugInfo(0x103 = JLINKARM_DEBUG_INFO_TPIU_ADDR_INDEX)
T09E8 000:119.756   Value=0xE0040000
T09E8 000:119.760 - 0.010ms returns 0x00
T09E8 000:119.764 JLINK_GetDebugInfo(0x104 = JLINKARM_DEBUG_INFO_ITM_ADDR_INDEX)
T09E8 000:119.768   Value=0xE0000000
T09E8 000:119.773 - 0.009ms returns 0x00
T09E8 000:119.777 JLINK_GetDebugInfo(0x105 = JLINKARM_DEBUG_INFO_DWT_ADDR_INDEX)
T09E8 000:119.780   Value=0xE0001000
T09E8 000:119.785 - 0.009ms returns 0x00
T09E8 000:119.789 JLINK_GetDebugInfo(0x106 = JLINKARM_DEBUG_INFO_FPB_ADDR_INDEX)
T09E8 000:119.792   Value=0xE0002000
T09E8 000:119.797 - 0.009ms returns 0x00
T09E8 000:119.801 JLINK_GetDebugInfo(0x107 = JLINKARM_DEBUG_INFO_NVIC_ADDR_INDEX)
T09E8 000:119.804   Value=0xE000E000
T09E8 000:119.809 - 0.009ms returns 0x00
T09E8 000:119.813 JLINK_GetDebugInfo(0x10C = JLINKARM_DEBUG_INFO_DBG_ADDR_INDEX)
T09E8 000:119.817   Value=0xE000EDF0
T09E8 000:119.821 - 0.009ms returns 0x00
T09E8 000:119.825 JLINK_GetDebugInfo(0x01 = Unknown)
T09E8 000:119.830   Value=0x00000001
T09E8 000:119.835 - 0.011ms returns 0x00
T09E8 000:119.841 JLINK_ReadMemU32(0xE000ED00, 0x0001 Items, ...)
T09E8 000:119.852   CPU_ReadMem(4 bytes @ 0xE000ED00)
T09E8 000:120.249   Data:  41 C2 0F 41
T09E8 000:120.261    - CPUID
T09E8 000:120.266 - 0.430ms returns 1
T09E8 000:120.276 JLINK_GetDebugInfo(0x10F = JLINKARM_DEBUG_INFO_HAS_CORTEX_M_SECURITY_EXT_INDEX)
T09E8 000:120.281   Value=0x00000000
T09E8 000:120.286 - 0.010ms returns 0x00
T09E8 000:120.292 JLINK_SetResetType(JLINKARM_CM3_RESET_TYPE_NORMAL)
T09E8 000:120.296 - 0.005ms returns JLINKARM_CM3_RESET_TYPE_NORMAL
T09E8 000:120.300 JLINK_Reset()
T09E8 000:120.314   CPU is running
T09E8 000:120.320   CPU_WriteMem(4 bytes @ 0xE000EDF0)
T09E8 000:120.560   CPU is running
T09E8 000:120.567   CPU_WriteMem(4 bytes @ 0xE000EDFC)
T09E8 000:122.550   Reset: Halt core after reset via DEMCR.VC_CORERESET.
T09E8 000:124.236   Reset: Reset device via AIRCR.SYSRESETREQ.
T09E8 000:124.253   CPU is running
T09E8 000:124.261   CPU_WriteMem(4 bytes @ 0xE000ED0C)
T09E8 000:180.105   CPU_ReadMem(4 bytes @ 0xE000EDF0)
T09E8 000:180.448   CPU_ReadMem(4 bytes @ 0xE000EDF0)
T09E8 000:180.766   CPU is running
T09E8 000:180.773   CPU_WriteMem(4 bytes @ 0xE000EDF0)
T09E8 000:181.076   CPU is running
T09E8 000:181.081   CPU_WriteMem(4 bytes @ 0xE000EDFC)
T09E8 000:195.729   CPU_ReadMem(4 bytes @ 0xE000EDF0)
T09E8 000:197.935   CPU_WriteMem(4 bytes @ 0xE000EDFC)
T09E8 000:198.250   CPU_WriteMem(4 bytes @ 0xE0001028)
T09E8 000:198.557   CPU_WriteMem(4 bytes @ 0xE0001038)
T09E8 000:198.849   CPU_WriteMem(4 bytes @ 0xE0001048)
T09E8 000:199.186   CPU_WriteMem(4 bytes @ 0xE0001058)
T09E8 000:199.422   CPU_WriteMem(4 bytes @ 0xE0002000)
T09E8 000:199.640   CPU_ReadMem(4 bytes @ 0xE000EDFC)
T09E8 000:199.905   CPU_ReadMem(4 bytes @ 0xE0001000)
T09E8 000:200.189 - 79.893ms
T09E8 000:200.206 JLINK_Halt()
T09E8 000:200.210 - 0.005ms returns 0x00
T09E8 000:200.244 JLINK_ReadMemU32(0xE000EDF0, 0x0001 Items, ...)
T09E8 000:200.256   CPU_ReadMem(4 bytes @ 0xE000EDF0)
T09E8 000:200.574   Data:  03 00 03 00
T09E8 000:200.579    - DHCSR
T09E8 000:200.584 - 0.342ms returns 1
T09E8 000:200.590 JLINK_WriteU32(0xE000EDF0, 0xA05F0003)
T09E8 000:200.594    - DHCSR
T09E8 000:200.607   CPU_WriteMem(4 bytes @ 0xE000EDF0)
T09E8 000:200.830 - 0.244ms returns 0
T09E8 000:200.839 JLINK_WriteU32(0xE000EDFC, 0x01000000)
T09E8 000:200.844    - DEMCR
T09E8 000:200.854   CPU_WriteMem(4 bytes @ 0xE000EDFC)
T09E8 000:201.078 - 0.241ms returns 0
T09E8 000:207.998 JLINK_GetHWStatus(...)
T09E8 000:208.195 - 0.204ms returns 0x00
T09E8 000:212.504 JLINK_GetNumBPUnits(Type = 0xFFFFFF00)
T09E8 000:212.518 - 0.017ms returns 0x06
T09E8 000:212.524 JLINK_GetNumBPUnits(Type = 0xF0)
T09E8 000:212.527 - 0.005ms returns 0x2000
T09E8 000:212.531 JLINK_GetNumWPUnits()
T09E8 000:212.535 - 0.005ms returns 0x04
T09E8 000:216.402 JLINK_GetSpeed()
T09E8 000:216.416 - 0.016ms returns 0x1388
T09E8 000:221.679 JLINK_ReadMemU32(0xE000E004, 0x0001 Items, ...)
T09E8 000:221.709   CPU_ReadMem(4 bytes @ 0xE000E004)
T09E8 000:222.089   Data:  02 00 00 00
T09E8 000:222.106 - 0.429ms returns 1
T09E8 000:222.116 JLINK_ReadMemU32(0xE000E004, 0x0001 Items, ...)
T09E8 000:222.135   CPU_ReadMem(4 bytes @ 0xE000E004)
T09E8 000:222.401   Data:  02 00 00 00
T09E8 000:222.407 - 0.292ms returns 1
T09E8 000:222.413 JLINK_WriteMemEx(0xE0001000, 0x001C Bytes, ..., Flags = 0x02000004)
T09E8 000:222.417   Data:  01 00 00 00 00 00 00 00 00 00 00 00 00 00 00 00 ...
T09E8 000:222.709   CPU_WriteMem(28 bytes @ 0xE0001000)
T09E8 000:223.024 - 0.617ms returns 0x1C
T09E8 000:223.042 JLINK_Halt()
T09E8 000:223.046 - 0.005ms returns 0x00
T09E8 000:223.050 JLINK_IsHalted()
T09E8 000:223.054 - 0.005ms returns TRUE
T09E8 000:226.699 JLINK_WriteMem(0x20000000, 0x0184 Bytes, ...)
T09E8 000:226.710   Data:  00 BE 0A E0 0D 78 2D 06 68 40 08 24 40 00 00 D3 ...
T09E8 000:227.004   CPU_WriteMem(388 bytes @ 0x20000000)
T09E8 000:229.649 - 2.959ms returns 0x184
T09E8 000:229.729 JLINK_WriteReg(R0, 0x08000000)
T09E8 000:229.736 - 0.010ms returns 0x00
T09E8 000:229.741 JLINK_WriteReg(R1, 0x007A1200)
T09E8 000:229.745 - 0.005ms returns 0x00
T09E8 000:229.749 JLINK_WriteReg(R2, 0x00000001)
T09E8 000:229.753 - 0.005ms returns 0x00
T09E8 000:229.757 JLINK_WriteReg(R3, 0x00000000)
T09E8 000:229.764 - 0.010ms returns 0x00
T09E8 000:229.770 JLINK_WriteReg(R4, 0x00000000)
T09E8 000:229.774 - 0.005ms returns 0x00
T09E8 000:229.778 JLINK_WriteReg(R5, 0x00000000)
T09E8 000:229.782 - 0.005ms returns 0x00
T09E8 000:229.786 JLINK_WriteReg(R6, 0x00000000)
T09E8 000:229.790 - 0.005ms returns 0x00
T09E8 000:229.794 JLINK_WriteReg(R7, 0x00000000)
T09E8 000:229.798 - 0.005ms returns 0x00
T09E8 000:229.802 JLINK_WriteReg(R8, 0x00000000)
T09E8 000:229.806 - 0.005ms returns 0x00
T09E8 000:229.810 JLINK_WriteReg(R9, 0x20000180)
T09E8 000:229.814 - 0.005ms returns 0x00
T09E8 000:229.818 JLINK_WriteReg(R10, 0x00000000)
T09E8 000:229.822 - 0.005ms returns 0x00
T09E8 000:229.827 JLINK_WriteReg(R11, 0x00000000)
T09E8 000:229.830 - 0.005ms returns 0x00
T09E8 000:229.835 JLINK_WriteReg(R12, 0x00000000)
T09E8 000:229.838 - 0.005ms returns 0x00
T09E8 000:229.843 JLINK_WriteReg(R13 (SP), 0x20001000)
T09E8 000:229.847 - 0.006ms returns 0x00
T09E8 000:229.851 JLINK_WriteReg(R14, 0x20000001)
T09E8 000:229.855 - 0.005ms returns 0x00
T09E8 000:229.859 JLINK_WriteReg(R15 (PC), 0x20000054)
T09E8 000:229.863 - 0.005ms returns 0x00
T09E8 000:229.867 JLINK_WriteReg(XPSR, 0x01000000)
T09E8 000:229.871 - 0.005ms returns 0x00
T09E8 000:229.876 JLINK_WriteReg(MSP, 0x20001000)
T09E8 000:229.879 - 0.005ms returns 0x00
T09E8 000:229.884 JLINK_WriteReg(PSP, 0x20001000)
T09E8 000:229.887 - 0.005ms returns 0x00
T09E8 000:229.891 JLINK_WriteReg(CFBP, 0x00000000)
T09E8 000:229.895 - 0.005ms returns 0x00
T09E8 000:229.900   JLINK_SetBPEx(Addr = 0x20000000, Type = 0xFFFFFFF2)
T09E8 000:229.910   CPU_ReadMem(2 bytes @ 0x20000000)
T09E8 000:230.217 - 0.323ms returns 0x00000001
T09E8 000:230.227 JLINK_Go()
T09E8 000:230.235   CPU_WriteMem(2 bytes @ 0x20000000)
T09E8 000:231.240   CPU_ReadMem(4 bytes @ 0xE0001000)
T09E8 000:231.574   CPU_WriteMem(4 bytes @ 0xE0002008)
T09E8 000:231.580   CPU_WriteMem(4 bytes @ 0xE000200C)
T09E8 000:231.586   CPU_WriteMem(4 bytes @ 0xE0002010)
T09E8 000:231.591   CPU_WriteMem(4 bytes @ 0xE0002014)
T09E8 000:231.596   CPU_WriteMem(4 bytes @ 0xE0002018)
T09E8 000:231.602   CPU_WriteMem(4 bytes @ 0xE000201C)
T09E8 000:232.629   CPU_WriteMem(4 bytes @ 0xE0001004)
T09E8 000:234.672 - 4.449ms
T09E8 000:234.682 JLINK_IsHalted()
T09E8 000:236.436   CPU_ReadMem(2 bytes @ 0x20000000)
T09E8 000:236.689 - 2.012ms returns TRUE
T09E8 000:236.700 JLINK_ReadReg(R15 (PC))
T09E8 000:236.707 - 0.010ms returns 0x20000000
T09E8 000:236.712 JLINK_ClrBPEx(BPHandle = 0x00000001)
T09E8 000:236.717 - 0.006ms returns 0x00
T09E8 000:236.721 JLINK_ReadReg(R0)
T09E8 000:236.725 - 0.005ms returns 0x00000000
T09E8 000:237.081 JLINK_WriteReg(R0, 0x08000000)
T09E8 000:237.090 - 0.011ms returns 0x00
T09E8 000:237.095 JLINK_WriteReg(R1, 0x00004000)
T09E8 000:237.098 - 0.005ms returns 0x00
T09E8 000:237.103 JLINK_WriteReg(R2, 0x000000FF)
T09E8 000:237.106 - 0.005ms returns 0x00
T09E8 000:237.110 JLINK_WriteReg(R3, 0x00000000)
T09E8 000:237.114 - 0.005ms returns 0x00
T09E8 000:237.118 JLINK_WriteReg(R4, 0x00000000)
T09E8 000:237.122 - 0.005ms returns 0x00
T09E8 000:237.126 JLINK_WriteReg(R5, 0x00000000)
T09E8 000:237.129 - 0.005ms returns 0x00
T09E8 000:237.134 JLINK_WriteReg(R6, 0x00000000)
T09E8 000:237.137 - 0.005ms returns 0x00
T09E8 000:237.141 JLINK_WriteReg(R7, 0x00000000)
T09E8 000:237.144 - 0.005ms returns 0x00
T09E8 000:237.148 JLINK_WriteReg(R8, 0x00000000)
T09E8 000:237.152 - 0.005ms returns 0x00
T09E8 000:237.156 JLINK_WriteReg(R9, 0x20000180)
T09E8 000:237.159 - 0.005ms returns 0x00
T09E8 000:237.163 JLINK_WriteReg(R10, 0x00000000)
T09E8 000:237.167 - 0.005ms returns 0x00
T09E8 000:237.171 JLINK_WriteReg(R11, 0x00000000)
T09E8 000:237.175 - 0.005ms returns 0x00
T09E8 000:237.179 JLINK_WriteReg(R12, 0x00000000)
T09E8 000:237.182 - 0.005ms returns 0x00
T09E8 000:237.186 JLINK_WriteReg(R13 (SP), 0x20001000)
T09E8 000:237.190 - 0.005ms returns 0x00
T09E8 000:237.194 JLINK_WriteReg(R14, 0x20000001)
T09E8 000:237.198 - 0.005ms returns 0x00
T09E8 000:237.202 JLINK_WriteReg(R15 (PC), 0x20000020)
T09E8 000:237.241 - 0.040ms returns 0x00
T09E8 000:237.245 JLINK_WriteReg(XPSR, 0x01000000)
T09E8 000:237.249 - 0.005ms returns 0x00
T09E8 000:237.253 JLINK_WriteReg(MSP, 0x20001000)
T09E8 000:237.256 - 0.005ms returns 0x00
T09E8 000:237.260 JLINK_WriteReg(PSP, 0x20001000)
T09E8 000:237.264 - 0.005ms returns 0x00
T09E8 000:237.268 JLINK_WriteReg(CFBP, 0x00000000)
T09E8 000:237.271 - 0.005ms returns 0x00
T09E8 000:237.276   JLINK_SetBPEx(Addr = 0x20000000, Type = 0xFFFFFFF2)
T09E8 000:237.282 - 0.008ms returns 0x00000002
T09E8 000:237.286 JLINK_Go()
T09E8 000:237.298   CPU_ReadMem(4 bytes @ 0xE0001000)
T09E8 000:239.374 - 2.094ms
T09E8 000:239.386 JLINK_IsHalted()
T09E8 000:241.094   CPU_ReadMem(2 bytes @ 0x20000000)
T09E8 000:241.490 - 2.110ms returns TRUE
T09E8 000:241.501 JLINK_ReadReg(R15 (PC))
T09E8 000:241.506 - 0.007ms returns 0x20000000
T09E8 000:241.511 JLINK_ClrBPEx(BPHandle = 0x00000002)
T09E8 000:241.515 - 0.005ms returns 0x00
T09E8 000:241.520 JLINK_ReadReg(R0)
T09E8 000:241.524 - 0.006ms returns 0x00000001
T09E8 000:241.530 JLINK_WriteReg(R0, 0x08000000)
T09E8 000:241.534 - 0.006ms returns 0x00
T09E8 000:241.539 JLINK_WriteReg(R1, 0x00004000)
T09E8 000:241.542 - 0.005ms returns 0x00
T09E8 000:241.546 JLINK_WriteReg(R2, 0x000000FF)
T09E8 000:241.550 - 0.005ms returns 0x00
T09E8 000:241.554 JLINK_WriteReg(R3, 0x00000000)
T09E8 000:241.557 - 0.005ms returns 0x00
T09E8 000:241.561 JLINK_WriteReg(R4, 0x00000000)
T09E8 000:241.565 - 0.005ms returns 0x00
T09E8 000:241.569 JLINK_WriteReg(R5, 0x00000000)
T09E8 000:241.572 - 0.005ms returns 0x00
T09E8 000:241.576 JLINK_WriteReg(R6, 0x00000000)
T09E8 000:241.580 - 0.005ms returns 0x00
T09E8 000:241.584 JLINK_WriteReg(R7, 0x00000000)
T09E8 000:241.587 - 0.005ms returns 0x00
T09E8 000:241.591 JLINK_WriteReg(R8, 0x00000000)
T09E8 000:241.595 - 0.005ms returns 0x00
T09E8 000:241.599 JLINK_WriteReg(R9, 0x20000180)
T09E8 000:241.602 - 0.005ms returns 0x00
T09E8 000:241.606 JLINK_WriteReg(R10, 0x00000000)
T09E8 000:241.610 - 0.005ms returns 0x00
T09E8 000:241.614 JLINK_WriteReg(R11, 0x00000000)
T09E8 000:241.617 - 0.005ms returns 0x00
T09E8 000:241.622 JLINK_WriteReg(R12, 0x00000000)
T09E8 000:241.625 - 0.005ms returns 0x00
T09E8 000:241.629 JLINK_WriteReg(R13 (SP), 0x20001000)
T09E8 000:241.633 - 0.005ms returns 0x00
T09E8 000:241.637 JLINK_WriteReg(R14, 0x20000001)
T09E8 000:241.641 - 0.005ms returns 0x00
T09E8 000:241.645 JLINK_WriteReg(R15 (PC), 0x200000C0)
T09E8 000:241.648 - 0.005ms returns 0x00
T09E8 000:241.653 JLINK_WriteReg(XPSR, 0x01000000)
T09E8 000:241.656 - 0.005ms returns 0x00
T09E8 000:241.660 JLINK_WriteReg(MSP, 0x20001000)
T09E8 000:241.664 - 0.005ms returns 0x00
T09E8 000:241.668 JLINK_WriteReg(PSP, 0x20001000)
T09E8 000:241.671 - 0.005ms returns 0x00
T09E8 000:241.675 JLINK_WriteReg(CFBP, 0x00000000)
T09E8 000:241.679 - 0.005ms returns 0x00
T09E8 000:241.683   JLINK_SetBPEx(Addr = 0x20000000, Type = 0xFFFFFFF2)
T09E8 000:241.689 - 0.007ms returns 0x00000003
T09E8 000:241.693 JLINK_Go()
T09E8 000:241.701   CPU_ReadMem(4 bytes @ 0xE0001000)
T09E8 000:243.819 - 2.132ms
T09E8 000:243.830 JLINK_IsHalted()
T09E8 000:244.241 - 0.413ms returns FALSE
T09E8 000:258.801 JLINK_IsHalted()
T09E8 000:259.280 - 0.492ms returns FALSE
T09E8 000:274.597 JLINK_IsHalted()
T09E8 000:274.996 - 0.402ms returns FALSE
T09E8 000:290.309 JLINK_IsHalted()
T09E8 000:290.599 - 0.297ms returns FALSE
T09E8 000:305.903 JLINK_IsHalted()
T09E8 000:306.223 - 0.327ms returns FALSE
T09E8 000:321.946 JLINK_IsHalted()
T09E8 000:322.418 - 0.480ms returns FALSE
T09E8 000:337.869 JLINK_IsHalted()
T09E8 000:338.269 - 0.416ms returns FALSE
T09E8 000:353.814 JLINK_IsHalted()
T09E8 000:354.178 - 0.373ms returns FALSE
T09E8 000:369.560 JLINK_IsHalted()
T09E8 000:370.038 - 0.487ms returns FALSE
T09E8 000:385.279 JLINK_IsHalted()
T09E8 000:385.725 - 0.452ms returns FALSE
T09E8 000:401.572 JLINK_IsHalted()
T09E8 000:401.903 - 0.341ms returns FALSE
T09E8 000:417.507 JLINK_IsHalted()
T09E8 000:418.010 - 0.509ms returns FALSE
T09E8 000:433.426 JLINK_IsHalted()
T09E8 000:433.727 - 0.310ms returns FALSE
T09E8 000:449.308 JLINK_IsHalted()
T09E8 000:449.676 - 0.372ms returns FALSE
T09E8 000:465.120 JLINK_IsHalted()
T09E8 000:465.552 - 0.439ms returns FALSE
T09E8 000:481.248 JLINK_IsHalted()
T09E8 000:481.543 - 0.298ms returns FALSE
T09E8 000:497.053 JLINK_IsHalted()
T09E8 000:497.384 - 0.340ms returns FALSE
T09E8 000:512.663 JLINK_IsHalted()
T09E8 000:513.116 - 0.458ms returns FALSE
T09E8 000:528.433 JLINK_IsHalted()
T09E8 000:528.946 - 0.525ms returns FALSE
T09E8 000:544.472 JLINK_IsHalted()
T09E8 000:544.934 - 0.468ms returns FALSE
T09E8 000:560.273 JLINK_IsHalted()
T09E8 000:560.610 - 0.342ms returns FALSE
T09E8 000:575.846 JLINK_IsHalted()
T09E8 000:576.351 - 0.514ms returns FALSE
T09E8 000:591.631 JLINK_IsHalted()
T09E8 000:592.059 - 0.430ms returns FALSE
T09E8 000:606.941 JLINK_IsHalted()
T09E8 000:607.451 - 0.517ms returns FALSE
T09E8 000:623.000 JLINK_IsHalted()
T09E8 000:625.094   CPU_ReadMem(2 bytes @ 0x20000000)
T09E8 000:625.504 - 2.513ms returns TRUE
T09E8 000:625.519 JLINK_ReadReg(R15 (PC))
T09E8 000:625.526 - 0.009ms returns 0x20000000
T09E8 000:625.530 JLINK_ClrBPEx(BPHandle = 0x00000003)
T09E8 000:625.535 - 0.005ms returns 0x00
T09E8 000:625.539 JLINK_ReadReg(R0)
T09E8 000:625.543 - 0.005ms returns 0x00000000
T09E8 000:625.995 JLINK_WriteReg(R0, 0x00000001)
T09E8 000:626.004 - 0.011ms returns 0x00
T09E8 000:626.009 JLINK_WriteReg(R1, 0x00004000)
T09E8 000:626.013 - 0.005ms returns 0x00
T09E8 000:626.017 JLINK_WriteReg(R2, 0x000000FF)
T09E8 000:626.021 - 0.005ms returns 0x00
T09E8 000:626.025 JLINK_WriteReg(R3, 0x00000000)
T09E8 000:626.028 - 0.005ms returns 0x00
T09E8 000:626.032 JLINK_WriteReg(R4, 0x00000000)
T09E8 000:626.036 - 0.005ms returns 0x00
T09E8 000:626.040 JLINK_WriteReg(R5, 0x00000000)
T09E8 000:626.043 - 0.005ms returns 0x00
T09E8 000:626.047 JLINK_WriteReg(R6, 0x00000000)
T09E8 000:626.051 - 0.005ms returns 0x00
T09E8 000:626.055 JLINK_WriteReg(R7, 0x00000000)
T09E8 000:626.059 - 0.005ms returns 0x00
T09E8 000:626.063 JLINK_WriteReg(R8, 0x00000000)
T09E8 000:626.067 - 0.006ms returns 0x00
T09E8 000:626.071 JLINK_WriteReg(R9, 0x20000180)
T09E8 000:626.074 - 0.005ms returns 0x00
T09E8 000:626.079 JLINK_WriteReg(R10, 0x00000000)
T09E8 000:626.082 - 0.005ms returns 0x00
T09E8 000:626.086 JLINK_WriteReg(R11, 0x00000000)
T09E8 000:626.090 - 0.005ms returns 0x00
T09E8 000:626.094 JLINK_WriteReg(R12, 0x00000000)
T09E8 000:626.098 - 0.005ms returns 0x00
T09E8 000:626.102 JLINK_WriteReg(R13 (SP), 0x20001000)
T09E8 000:626.106 - 0.005ms returns 0x00
T09E8 000:626.110 JLINK_WriteReg(R14, 0x20000001)
T09E8 000:626.113 - 0.005ms returns 0x00
T09E8 000:626.117 JLINK_WriteReg(R15 (PC), 0x20000086)
T09E8 000:626.121 - 0.005ms returns 0x00
T09E8 000:626.125 JLINK_WriteReg(XPSR, 0x01000000)
T09E8 000:626.129 - 0.005ms returns 0x00
T09E8 000:626.133 JLINK_WriteReg(MSP, 0x20001000)
T09E8 000:626.136 - 0.005ms returns 0x00
T09E8 000:626.140 JLINK_WriteReg(PSP, 0x20001000)
T09E8 000:626.144 - 0.005ms returns 0x00
T09E8 000:626.148 JLINK_WriteReg(CFBP, 0x00000000)
T09E8 000:626.151 - 0.005ms returns 0x00
T09E8 000:626.156   JLINK_SetBPEx(Addr = 0x20000000, Type = 0xFFFFFFF2)
T09E8 000:626.162 - 0.008ms returns 0x00000004
T09E8 000:626.167 JLINK_Go()
T09E8 000:626.176   CPU_ReadMem(4 bytes @ 0xE0001000)
T09E8 000:628.253 - 2.093ms
T09E8 000:628.265 JLINK_IsHalted()
T09E8 000:630.024   CPU_ReadMem(2 bytes @ 0x20000000)
T09E8 000:630.380 - 2.125ms returns TRUE
T09E8 000:630.397 JLINK_ReadReg(R15 (PC))
T09E8 000:630.406 - 0.012ms returns 0x20000000
T09E8 000:630.414 JLINK_ClrBPEx(BPHandle = 0x00000004)
T09E8 000:630.420 - 0.008ms returns 0x00
T09E8 000:630.427 JLINK_ReadReg(R0)
T09E8 000:630.433 - 0.009ms returns 0x00000000
T09E8 000:691.228 JLINK_WriteMem(0x20000000, 0x0184 Bytes, ...)
T09E8 000:691.240   Data:  00 BE 0A E0 0D 78 2D 06 68 40 08 24 40 00 00 D3 ...
T09E8 000:691.259   CPU_WriteMem(388 bytes @ 0x20000000)
T09E8 000:693.830 - 2.611ms returns 0x184
T09E8 000:693.865 JLINK_WriteReg(R0, 0x08000000)
T09E8 000:693.874 - 0.011ms returns 0x00
T09E8 000:693.879 JLINK_WriteReg(R1, 0x007A1200)
T09E8 000:693.882 - 0.005ms returns 0x00
T09E8 000:693.887 JLINK_WriteReg(R2, 0x00000002)
T09E8 000:693.890 - 0.005ms returns 0x00
T09E8 000:693.894 JLINK_WriteReg(R3, 0x00000000)
T09E8 000:693.898 - 0.005ms returns 0x00
T09E8 000:693.902 JLINK_WriteReg(R4, 0x00000000)
T09E8 000:693.906 - 0.005ms returns 0x00
T09E8 000:693.910 JLINK_WriteReg(R5, 0x00000000)
T09E8 000:693.913 - 0.005ms returns 0x00
T09E8 000:693.917 JLINK_WriteReg(R6, 0x00000000)
T09E8 000:693.921 - 0.005ms returns 0x00
T09E8 000:693.925 JLINK_WriteReg(R7, 0x00000000)
T09E8 000:693.928 - 0.005ms returns 0x00
T09E8 000:693.932 JLINK_WriteReg(R8, 0x00000000)
T09E8 000:693.936 - 0.005ms returns 0x00
T09E8 000:693.940 JLINK_WriteReg(R9, 0x20000180)
T09E8 000:693.943 - 0.005ms returns 0x00
T09E8 000:693.947 JLINK_WriteReg(R10, 0x00000000)
T09E8 000:693.951 - 0.009ms returns 0x00
T09E8 000:693.959 JLINK_WriteReg(R11, 0x00000000)
T09E8 000:693.963 - 0.005ms returns 0x00
T09E8 000:693.967 JLINK_WriteReg(R12, 0x00000000)
T09E8 000:693.970 - 0.005ms returns 0x00
T09E8 000:693.974 JLINK_WriteReg(R13 (SP), 0x20001000)
T09E8 000:693.979 - 0.006ms returns 0x00
T09E8 000:693.983 JLINK_WriteReg(R14, 0x20000001)
T09E8 000:693.986 - 0.005ms returns 0x00
T09E8 000:693.991 JLINK_WriteReg(R15 (PC), 0x20000054)
T09E8 000:693.994 - 0.005ms returns 0x00
T09E8 000:693.998 JLINK_WriteReg(XPSR, 0x01000000)
T09E8 000:694.002 - 0.005ms returns 0x00
T09E8 000:694.006 JLINK_WriteReg(MSP, 0x20001000)
T09E8 000:694.010 - 0.005ms returns 0x00
T09E8 000:694.014 JLINK_WriteReg(PSP, 0x20001000)
T09E8 000:694.017 - 0.005ms returns 0x00
T09E8 000:694.021 JLINK_WriteReg(CFBP, 0x00000000)
T09E8 000:694.025 - 0.005ms returns 0x00
T09E8 000:694.030   JLINK_SetBPEx(Addr = 0x20000000, Type = 0xFFFFFFF2)
T09E8 000:694.040   CPU_ReadMem(2 bytes @ 0x20000000)
T09E8 000:694.457 - 0.444ms returns 0x00000005
T09E8 000:694.487 JLINK_Go()
T09E8 000:694.495   CPU_WriteMem(2 bytes @ 0x20000000)
T09E8 000:694.735   CPU_ReadMem(4 bytes @ 0xE0001000)
T09E8 000:696.764 - 2.284ms
T09E8 000:696.777 JLINK_IsHalted()
T09E8 000:698.478   CPU_ReadMem(2 bytes @ 0x20000000)
T09E8 000:698.800 - 2.025ms returns TRUE
T09E8 000:698.808 JLINK_ReadReg(R15 (PC))
T09E8 000:698.814 - 0.008ms returns 0x20000000
T09E8 000:698.819 JLINK_ClrBPEx(BPHandle = 0x00000005)
T09E8 000:698.824 - 0.006ms returns 0x00
T09E8 000:698.828 JLINK_ReadReg(R0)
T09E8 000:698.832 - 0.005ms returns 0x00000000
T09E8 000:699.205 JLINK_WriteMem(0x20000184, 0x027C Bytes, ...)
T09E8 000:699.214   Data:  50 08 00 20 69 02 00 08 F7 10 00 08 59 10 00 08 ...
T09E8 000:699.229   CPU_WriteMem(636 bytes @ 0x20000184)
T09E8 000:703.032 - 3.840ms returns 0x27C
T09E8 000:703.061 JLINK_WriteMem(0x20000400, 0x0184 Bytes, ...)
T09E8 000:703.065   Data:  FE E7 FE E7 FE E7 FE E7 04 48 05 49 05 4A 06 4B ...
T09E8 000:703.091   CPU_WriteMem(388 bytes @ 0x20000400)
T09E8 000:705.634 - 2.581ms returns 0x184
T09E8 000:705.657 JLINK_WriteReg(R0, 0x08000000)
T09E8 000:705.671 - 0.016ms returns 0x00
T09E8 000:705.677 JLINK_WriteReg(R1, 0x00000400)
T09E8 000:705.681 - 0.005ms returns 0x00
T09E8 000:705.715 JLINK_WriteReg(R2, 0x20000184)
T09E8 000:705.720 - 0.006ms returns 0x00
T09E8 000:705.724 JLINK_WriteReg(R3, 0x00000000)
T09E8 000:705.728 - 0.005ms returns 0x00
T09E8 000:705.732 JLINK_WriteReg(R4, 0x00000000)
T09E8 000:705.736 - 0.005ms returns 0x00
T09E8 000:705.740 JLINK_WriteReg(R5, 0x00000000)
T09E8 000:705.744 - 0.005ms returns 0x00
T09E8 000:705.748 JLINK_WriteReg(R6, 0x00000000)
T09E8 000:705.751 - 0.005ms returns 0x00
T09E8 000:705.756 JLINK_WriteReg(R7, 0x00000000)
T09E8 000:705.759 - 0.005ms returns 0x00
T09E8 000:705.763 JLINK_WriteReg(R8, 0x00000000)
T09E8 000:705.767 - 0.005ms returns 0x00
T09E8 000:705.771 JLINK_WriteReg(R9, 0x20000180)
T09E8 000:705.775 - 0.005ms returns 0x00
T09E8 000:705.782 JLINK_WriteReg(R10, 0x00000000)
T09E8 000:705.787 - 0.006ms returns 0x00
T09E8 000:705.791 JLINK_WriteReg(R11, 0x00000000)
T09E8 000:705.795 - 0.005ms returns 0x00
T09E8 000:705.799 JLINK_WriteReg(R12, 0x00000000)
T09E8 000:705.803 - 0.005ms returns 0x00
T09E8 000:705.807 JLINK_WriteReg(R13 (SP), 0x20001000)
T09E8 000:705.811 - 0.006ms returns 0x00
T09E8 000:705.816 JLINK_WriteReg(R14, 0x20000001)
T09E8 000:705.819 - 0.005ms returns 0x00
T09E8 000:705.823 JLINK_WriteReg(R15 (PC), 0x2000010C)
T09E8 000:705.827 - 0.005ms returns 0x00
T09E8 000:705.831 JLINK_WriteReg(XPSR, 0x01000000)
T09E8 000:705.835 - 0.005ms returns 0x00
T09E8 000:705.840 JLINK_WriteReg(MSP, 0x20001000)
T09E8 000:705.843 - 0.005ms returns 0x00
T09E8 000:705.848 JLINK_WriteReg(PSP, 0x20001000)
T09E8 000:705.852 - 0.006ms returns 0x00
T09E8 000:705.856 JLINK_WriteReg(CFBP, 0x00000000)
T09E8 000:705.860 - 0.005ms returns 0x00
T09E8 000:705.864   JLINK_SetBPEx(Addr = 0x20000000, Type = 0xFFFFFFF2)
T09E8 000:705.871 - 0.008ms returns 0x00000006
T09E8 000:705.878 JLINK_Go()
T09E8 000:705.890   CPU_ReadMem(4 bytes @ 0xE0001000)
T09E8 000:707.917 - 2.053ms
T09E8 000:707.936 JLINK_IsHalted()
T09E8 000:708.196 - 0.264ms returns FALSE
T09E8 000:717.436 JLINK_IsHalted()
T09E8 000:719.286   CPU_ReadMem(2 bytes @ 0x20000000)
T09E8 000:719.551 - 2.117ms returns TRUE
T09E8 000:719.558 JLINK_ReadReg(R15 (PC))
T09E8 000:719.565 - 0.008ms returns 0x20000000
T09E8 000:719.570 JLINK_ClrBPEx(BPHandle = 0x00000006)
T09E8 000:719.574 - 0.005ms returns 0x00
T09E8 000:719.578 JLINK_ReadReg(R0)
T09E8 000:719.582 - 0.005ms returns 0x00000000
T09E8 000:720.074 JLINK_WriteMem(0x20000184, 0x027C Bytes, ...)
T09E8 000:720.084   Data:  20 B5 FF F7 3F FF BD E8 20 40 4F F0 00 06 4F F0 ...
T09E8 000:720.097   CPU_WriteMem(636 bytes @ 0x20000184)
T09E8 000:723.900 - 3.832ms returns 0x27C
T09E8 000:723.913 JLINK_WriteMem(0x20000400, 0x0184 Bytes, ...)
T09E8 000:723.917   Data:  53 EC 19 2B 00 F0 F8 FD 00 F0 9E FE 04 EB 06 09 ...
T09E8 000:723.929   CPU_WriteMem(388 bytes @ 0x20000400)
T09E8 000:726.562 - 2.654ms returns 0x184
T09E8 000:726.575 JLINK_WriteReg(R0, 0x08000400)
T09E8 000:726.583 - 0.010ms returns 0x00
T09E8 000:726.588 JLINK_WriteReg(R1, 0x00000400)
T09E8 000:726.592 - 0.006ms returns 0x00
T09E8 000:726.596 JLINK_WriteReg(R2, 0x20000184)
T09E8 000:726.600 - 0.005ms returns 0x00
T09E8 000:726.604 JLINK_WriteReg(R3, 0x00000000)
T09E8 000:726.608 - 0.005ms returns 0x00
T09E8 000:726.612 JLINK_WriteReg(R4, 0x00000000)
T09E8 000:726.615 - 0.005ms returns 0x00
T09E8 000:726.620 JLINK_WriteReg(R5, 0x00000000)
T09E8 000:726.623 - 0.005ms returns 0x00
T09E8 000:726.627 JLINK_WriteReg(R6, 0x00000000)
T09E8 000:726.630 - 0.005ms returns 0x00
T09E8 000:726.634 JLINK_WriteReg(R7, 0x00000000)
T09E8 000:726.638 - 0.005ms returns 0x00
T09E8 000:726.642 JLINK_WriteReg(R8, 0x00000000)
T09E8 000:726.645 - 0.005ms returns 0x00
T09E8 000:726.649 JLINK_WriteReg(R9, 0x20000180)
T09E8 000:726.653 - 0.005ms returns 0x00
T09E8 000:726.657 JLINK_WriteReg(R10, 0x00000000)
T09E8 000:726.660 - 0.005ms returns 0x00
T09E8 000:726.664 JLINK_WriteReg(R11, 0x00000000)
T09E8 000:726.668 - 0.005ms returns 0x00
T09E8 000:726.672 JLINK_WriteReg(R12, 0x00000000)
T09E8 000:726.675 - 0.005ms returns 0x00
T09E8 000:726.679 JLINK_WriteReg(R13 (SP), 0x20001000)
T09E8 000:726.708 - 0.030ms returns 0x00
T09E8 000:726.712 JLINK_WriteReg(R14, 0x20000001)
T09E8 000:726.716 - 0.005ms returns 0x00
T09E8 000:726.720 JLINK_WriteReg(R15 (PC), 0x2000010C)
T09E8 000:726.723 - 0.005ms returns 0x00
T09E8 000:726.727 JLINK_WriteReg(XPSR, 0x01000000)
T09E8 000:726.731 - 0.005ms returns 0x00
T09E8 000:726.735 JLINK_WriteReg(MSP, 0x20001000)
T09E8 000:726.739 - 0.005ms returns 0x00
T09E8 000:726.743 JLINK_WriteReg(PSP, 0x20001000)
T09E8 000:726.747 - 0.005ms returns 0x00
T09E8 000:726.751 JLINK_WriteReg(CFBP, 0x00000000)
T09E8 000:726.754 - 0.005ms returns 0x00
T09E8 000:726.759   JLINK_SetBPEx(Addr = 0x20000000, Type = 0xFFFFFFF2)
T09E8 000:726.766 - 0.040ms returns 0x00000007
T09E8 000:726.803 JLINK_Go()
T09E8 000:726.813   CPU_ReadMem(4 bytes @ 0xE0001000)
T09E8 000:728.988 - 2.191ms
T09E8 000:729.000 JLINK_IsHalted()
T09E8 000:729.415 - 0.424ms returns FALSE
T09E8 000:733.190 JLINK_IsHalted()
T09E8 000:735.032   CPU_ReadMem(2 bytes @ 0x20000000)
T09E8 000:735.422 - 2.235ms returns TRUE
T09E8 000:735.430 JLINK_ReadReg(R15 (PC))
T09E8 000:735.436 - 0.008ms returns 0x20000000
T09E8 000:735.441 JLINK_ClrBPEx(BPHandle = 0x00000007)
T09E8 000:735.445 - 0.006ms returns 0x00
T09E8 000:735.450 JLINK_ReadReg(R0)
T09E8 000:735.454 - 0.005ms returns 0x00000000
T09E8 000:735.971 JLINK_WriteMem(0x20000184, 0x027C Bytes, ...)
T09E8 000:735.979   Data:  00 F0 04 F9 40 1B A0 42 FA D3 70 BD E0 01 00 20 ...
T09E8 000:735.991   CPU_WriteMem(636 bytes @ 0x20000184)
T09E8 000:739.860 - 3.896ms returns 0x27C
T09E8 000:739.873 JLINK_WriteMem(0x20000400, 0x0184 Bytes, ...)
T09E8 000:739.878   Data:  07 D2 00 22 21 46 50 1E 00 F0 22 F8 00 20 6C 60 ...
T09E8 000:739.893   CPU_WriteMem(388 bytes @ 0x20000400)
T09E8 000:742.529 - 2.662ms returns 0x184
T09E8 000:742.545 JLINK_WriteReg(R0, 0x08000800)
T09E8 000:742.553 - 0.010ms returns 0x00
T09E8 000:742.557 JLINK_WriteReg(R1, 0x00000400)
T09E8 000:742.562 - 0.006ms returns 0x00
T09E8 000:742.566 JLINK_WriteReg(R2, 0x20000184)
T09E8 000:742.570 - 0.005ms returns 0x00
T09E8 000:742.574 JLINK_WriteReg(R3, 0x00000000)
T09E8 000:742.578 - 0.005ms returns 0x00
T09E8 000:742.582 JLINK_WriteReg(R4, 0x00000000)
T09E8 000:742.586 - 0.005ms returns 0x00
T09E8 000:742.590 JLINK_WriteReg(R5, 0x00000000)
T09E8 000:742.594 - 0.005ms returns 0x00
T09E8 000:742.598 JLINK_WriteReg(R6, 0x00000000)
T09E8 000:742.602 - 0.005ms returns 0x00
T09E8 000:742.606 JLINK_WriteReg(R7, 0x00000000)
T09E8 000:742.610 - 0.005ms returns 0x00
T09E8 000:742.614 JLINK_WriteReg(R8, 0x00000000)
T09E8 000:742.618 - 0.005ms returns 0x00
T09E8 000:742.622 JLINK_WriteReg(R9, 0x20000180)
T09E8 000:742.626 - 0.005ms returns 0x00
T09E8 000:742.630 JLINK_WriteReg(R10, 0x00000000)
T09E8 000:742.635 - 0.006ms returns 0x00
T09E8 000:742.640 JLINK_WriteReg(R11, 0x00000000)
T09E8 000:742.643 - 0.005ms returns 0x00
T09E8 000:742.648 JLINK_WriteReg(R12, 0x00000000)
T09E8 000:742.652 - 0.005ms returns 0x00
T09E8 000:742.656 JLINK_WriteReg(R13 (SP), 0x20001000)
T09E8 000:742.661 - 0.006ms returns 0x00
T09E8 000:742.665 JLINK_WriteReg(R14, 0x20000001)
T09E8 000:742.669 - 0.005ms returns 0x00
T09E8 000:742.673 JLINK_WriteReg(R15 (PC), 0x2000010C)
T09E8 000:742.677 - 0.005ms returns 0x00
T09E8 000:742.681 JLINK_WriteReg(XPSR, 0x01000000)
T09E8 000:742.685 - 0.005ms returns 0x00
T09E8 000:742.689 JLINK_WriteReg(MSP, 0x20001000)
T09E8 000:742.693 - 0.005ms returns 0x00
T09E8 000:742.697 JLINK_WriteReg(PSP, 0x20001000)
T09E8 000:742.701 - 0.005ms returns 0x00
T09E8 000:742.705 JLINK_WriteReg(CFBP, 0x00000000)
T09E8 000:742.709 - 0.005ms returns 0x00
T09E8 000:742.714   JLINK_SetBPEx(Addr = 0x20000000, Type = 0xFFFFFFF2)
T09E8 000:742.720 - 0.008ms returns 0x00000008
T09E8 000:742.725 JLINK_Go()
T09E8 000:742.735   CPU_ReadMem(4 bytes @ 0xE0001000)
T09E8 000:744.884 - 2.165ms
T09E8 000:744.896 JLINK_IsHalted()
T09E8 000:745.164 - 0.270ms returns FALSE
T09E8 000:749.006 JLINK_IsHalted()
T09E8 000:749.278 - 0.278ms returns FALSE
T09E8 000:764.845 JLINK_IsHalted()
T09E8 000:766.667   CPU_ReadMem(2 bytes @ 0x20000000)
T09E8 000:766.973 - 2.135ms returns TRUE
T09E8 000:766.986 JLINK_ReadReg(R15 (PC))
T09E8 000:766.996 - 0.012ms returns 0x20000000
T09E8 000:767.001 JLINK_ClrBPEx(BPHandle = 0x00000008)
T09E8 000:767.006 - 0.006ms returns 0x00
T09E8 000:767.010 JLINK_ReadReg(R0)
T09E8 000:767.014 - 0.005ms returns 0x00000000
T09E8 000:767.561 JLINK_WriteMem(0x20000184, 0x027C Bytes, ...)
T09E8 000:767.570   Data:  07 00 B0 42 01 D0 01 20 E7 E7 28 78 40 07 05 D5 ...
T09E8 000:767.582   CPU_WriteMem(636 bytes @ 0x20000184)
T09E8 000:771.427 - 3.902ms returns 0x27C
T09E8 000:771.469 JLINK_WriteMem(0x20000400, 0x0184 Bytes, ...)
T09E8 000:771.477   Data:  C0 05 10 D4 30 68 40 F4 80 70 30 60 FF F7 C0 FD ...
T09E8 000:771.492   CPU_WriteMem(388 bytes @ 0x20000400)
T09E8 000:774.133 - 2.670ms returns 0x184
T09E8 000:774.149 JLINK_WriteReg(R0, 0x08000C00)
T09E8 000:774.157 - 0.010ms returns 0x00
T09E8 000:774.162 JLINK_WriteReg(R1, 0x00000400)
T09E8 000:774.166 - 0.005ms returns 0x00
T09E8 000:774.170 JLINK_WriteReg(R2, 0x20000184)
T09E8 000:774.173 - 0.005ms returns 0x00
T09E8 000:774.178 JLINK_WriteReg(R3, 0x00000000)
T09E8 000:774.181 - 0.005ms returns 0x00
T09E8 000:774.185 JLINK_WriteReg(R4, 0x00000000)
T09E8 000:774.189 - 0.005ms returns 0x00
T09E8 000:774.193 JLINK_WriteReg(R5, 0x00000000)
T09E8 000:774.196 - 0.005ms returns 0x00
T09E8 000:774.200 JLINK_WriteReg(R6, 0x00000000)
T09E8 000:774.204 - 0.005ms returns 0x00
T09E8 000:774.208 JLINK_WriteReg(R7, 0x00000000)
T09E8 000:774.211 - 0.005ms returns 0x00
T09E8 000:774.216 JLINK_WriteReg(R8, 0x00000000)
T09E8 000:774.219 - 0.005ms returns 0x00
T09E8 000:774.227 JLINK_WriteReg(R9, 0x20000180)
T09E8 000:774.230 - 0.005ms returns 0x00
T09E8 000:774.234 JLINK_WriteReg(R10, 0x00000000)
T09E8 000:774.238 - 0.005ms returns 0x00
T09E8 000:774.242 JLINK_WriteReg(R11, 0x00000000)
T09E8 000:774.246 - 0.005ms returns 0x00
T09E8 000:774.250 JLINK_WriteReg(R12, 0x00000000)
T09E8 000:774.253 - 0.005ms returns 0x00
T09E8 000:774.257 JLINK_WriteReg(R13 (SP), 0x20001000)
T09E8 000:774.261 - 0.005ms returns 0x00
T09E8 000:774.265 JLINK_WriteReg(R14, 0x20000001)
T09E8 000:774.269 - 0.005ms returns 0x00
T09E8 000:774.273 JLINK_WriteReg(R15 (PC), 0x2000010C)
T09E8 000:774.277 - 0.005ms returns 0x00
T09E8 000:774.281 JLINK_WriteReg(XPSR, 0x01000000)
T09E8 000:774.284 - 0.005ms returns 0x00
T09E8 000:774.289 JLINK_WriteReg(MSP, 0x20001000)
T09E8 000:774.292 - 0.005ms returns 0x00
T09E8 000:774.296 JLINK_WriteReg(PSP, 0x20001000)
T09E8 000:774.300 - 0.005ms returns 0x00
T09E8 000:774.304 JLINK_WriteReg(CFBP, 0x00000000)
T09E8 000:774.307 - 0.005ms returns 0x00
T09E8 000:774.312   JLINK_SetBPEx(Addr = 0x20000000, Type = 0xFFFFFFF2)
T09E8 000:774.318 - 0.008ms returns 0x00000009
T09E8 000:774.322 JLINK_Go()
T09E8 000:774.333   CPU_ReadMem(4 bytes @ 0xE0001000)
T09E8 000:776.540 - 2.228ms
T09E8 000:776.556 JLINK_IsHalted()
T09E8 000:776.832 - 0.284ms returns FALSE
T09E8 000:780.629 JLINK_IsHalted()
T09E8 000:782.400   CPU_ReadMem(2 bytes @ 0x20000000)
T09E8 000:782.660 - 2.037ms returns TRUE
T09E8 000:782.671 JLINK_ReadReg(R15 (PC))
T09E8 000:782.679 - 0.009ms returns 0x20000000
T09E8 000:782.684 JLINK_ClrBPEx(BPHandle = 0x00000009)
T09E8 000:782.688 - 0.006ms returns 0x00
T09E8 000:782.692 JLINK_ReadReg(R0)
T09E8 000:782.697 - 0.005ms returns 0x00000000
T09E8 000:783.228 JLINK_WriteMem(0x20000184, 0x027C Bytes, ...)
T09E8 000:783.237   Data:  B1 EB 02 4F 06 D1 94 F8 2C 10 00 F0 70 60 B0 EB ...
T09E8 000:783.249   CPU_WriteMem(636 bytes @ 0x20000184)
T09E8 000:787.087 - 3.869ms returns 0x27C
T09E8 000:787.104 JLINK_WriteMem(0x20000400, 0x0184 Bytes, ...)
T09E8 000:787.109   Data:  83 F0 00 43 00 F1 2C 81 84 1A 71 EB 03 0C 05 D2 ...
T09E8 000:787.123   CPU_WriteMem(388 bytes @ 0x20000400)
T09E8 000:789.779 - 2.706ms returns 0x184
T09E8 000:789.819 JLINK_WriteReg(R0, 0x08001000)
T09E8 000:789.827 - 0.010ms returns 0x00
T09E8 000:789.831 JLINK_WriteReg(R1, 0x00000400)
T09E8 000:789.835 - 0.005ms returns 0x00
T09E8 000:789.839 JLINK_WriteReg(R2, 0x20000184)
T09E8 000:789.843 - 0.005ms returns 0x00
T09E8 000:789.847 JLINK_WriteReg(R3, 0x00000000)
T09E8 000:789.850 - 0.005ms returns 0x00
T09E8 000:789.854 JLINK_WriteReg(R4, 0x00000000)
T09E8 000:789.858 - 0.005ms returns 0x00
T09E8 000:789.862 JLINK_WriteReg(R5, 0x00000000)
T09E8 000:789.865 - 0.005ms returns 0x00
T09E8 000:789.869 JLINK_WriteReg(R6, 0x00000000)
T09E8 000:789.872 - 0.005ms returns 0x00
T09E8 000:789.877 JLINK_WriteReg(R7, 0x00000000)
T09E8 000:789.880 - 0.005ms returns 0x00
T09E8 000:789.884 JLINK_WriteReg(R8, 0x00000000)
T09E8 000:789.888 - 0.005ms returns 0x00
T09E8 000:789.892 JLINK_WriteReg(R9, 0x20000180)
T09E8 000:789.899 - 0.008ms returns 0x00
T09E8 000:789.903 JLINK_WriteReg(R10, 0x00000000)
T09E8 000:789.906 - 0.005ms returns 0x00
T09E8 000:789.911 JLINK_WriteReg(R11, 0x00000000)
T09E8 000:789.914 - 0.005ms returns 0x00
T09E8 000:789.918 JLINK_WriteReg(R12, 0x00000000)
T09E8 000:789.922 - 0.005ms returns 0x00
T09E8 000:789.926 JLINK_WriteReg(R13 (SP), 0x20001000)
T09E8 000:789.930 - 0.006ms returns 0x00
T09E8 000:789.934 JLINK_WriteReg(R14, 0x20000001)
T09E8 000:789.938 - 0.005ms returns 0x00
T09E8 000:789.942 JLINK_WriteReg(R15 (PC), 0x2000010C)
T09E8 000:789.945 - 0.005ms returns 0x00
T09E8 000:789.949 JLINK_WriteReg(XPSR, 0x01000000)
T09E8 000:789.953 - 0.005ms returns 0x00
T09E8 000:789.957 JLINK_WriteReg(MSP, 0x20001000)
T09E8 000:789.960 - 0.005ms returns 0x00
T09E8 000:789.964 JLINK_WriteReg(PSP, 0x20001000)
T09E8 000:789.968 - 0.005ms returns 0x00
T09E8 000:789.972 JLINK_WriteReg(CFBP, 0x00000000)
T09E8 000:789.975 - 0.005ms returns 0x00
T09E8 000:789.980   JLINK_SetBPEx(Addr = 0x20000000, Type = 0xFFFFFFF2)
T09E8 000:789.986 - 0.008ms returns 0x0000000A
T09E8 000:789.990 JLINK_Go()
T09E8 000:790.001   CPU_ReadMem(4 bytes @ 0xE0001000)
T09E8 000:792.154 - 2.169ms
T09E8 000:792.165 JLINK_IsHalted()
T09E8 000:792.444 - 0.281ms returns FALSE
T09E8 000:796.292 JLINK_IsHalted()
T09E8 000:798.246   CPU_ReadMem(2 bytes @ 0x20000000)
T09E8 000:798.580 - 2.295ms returns TRUE
T09E8 000:798.593 JLINK_ReadReg(R15 (PC))
T09E8 000:798.601 - 0.009ms returns 0x20000000
T09E8 000:798.606 JLINK_ClrBPEx(BPHandle = 0x0000000A)
T09E8 000:798.610 - 0.006ms returns 0x00
T09E8 000:798.615 JLINK_ReadReg(R0)
T09E8 000:798.619 - 0.006ms returns 0x00000000
T09E8 000:799.134 JLINK_WriteMem(0x20000184, 0x027C Bytes, ...)
T09E8 000:799.142   Data:  78 7C BC F1 FF 3F 04 D0 6F F0 00 42 82 EA 21 00 ...
T09E8 000:799.155   CPU_WriteMem(636 bytes @ 0x20000184)
T09E8 000:802.978 - 3.853ms returns 0x27C
T09E8 000:802.993 JLINK_WriteMem(0x20000400, 0x0184 Bytes, ...)
T09E8 000:802.998   Data:  04 BF 00 21 00 20 70 47 BD E8 10 40 70 B5 FF F7 ...
T09E8 000:803.010   CPU_WriteMem(388 bytes @ 0x20000400)
T09E8 000:805.765 - 2.781ms returns 0x184
T09E8 000:805.783 JLINK_WriteReg(R0, 0x08001400)
T09E8 000:805.791 - 0.010ms returns 0x00
T09E8 000:805.796 JLINK_WriteReg(R1, 0x00000400)
T09E8 000:805.800 - 0.005ms returns 0x00
T09E8 000:805.804 JLINK_WriteReg(R2, 0x20000184)
T09E8 000:805.808 - 0.005ms returns 0x00
T09E8 000:805.812 JLINK_WriteReg(R3, 0x00000000)
T09E8 000:805.816 - 0.005ms returns 0x00
T09E8 000:805.820 JLINK_WriteReg(R4, 0x00000000)
T09E8 000:805.824 - 0.006ms returns 0x00
T09E8 000:805.828 JLINK_WriteReg(R5, 0x00000000)
T09E8 000:805.832 - 0.005ms returns 0x00
T09E8 000:805.836 JLINK_WriteReg(R6, 0x00000000)
T09E8 000:805.840 - 0.005ms returns 0x00
T09E8 000:805.844 JLINK_WriteReg(R7, 0x00000000)
T09E8 000:805.847 - 0.005ms returns 0x00
T09E8 000:805.851 JLINK_WriteReg(R8, 0x00000000)
T09E8 000:805.855 - 0.005ms returns 0x00
T09E8 000:805.859 JLINK_WriteReg(R9, 0x20000180)
T09E8 000:805.862 - 0.005ms returns 0x00
T09E8 000:805.866 JLINK_WriteReg(R10, 0x00000000)
T09E8 000:805.870 - 0.005ms returns 0x00
T09E8 000:805.874 JLINK_WriteReg(R11, 0x00000000)
T09E8 000:805.877 - 0.005ms returns 0x00
T09E8 000:805.882 JLINK_WriteReg(R12, 0x00000000)
T09E8 000:805.885 - 0.005ms returns 0x00
T09E8 000:805.889 JLINK_WriteReg(R13 (SP), 0x20001000)
T09E8 000:805.893 - 0.005ms returns 0x00
T09E8 000:805.897 JLINK_WriteReg(R14, 0x20000001)
T09E8 000:805.901 - 0.005ms returns 0x00
T09E8 000:805.905 JLINK_WriteReg(R15 (PC), 0x2000010C)
T09E8 000:805.909 - 0.005ms returns 0x00
T09E8 000:805.913 JLINK_WriteReg(XPSR, 0x01000000)
T09E8 000:805.917 - 0.005ms returns 0x00
T09E8 000:805.920 JLINK_WriteReg(MSP, 0x20001000)
T09E8 000:805.924 - 0.005ms returns 0x00
T09E8 000:805.928 JLINK_WriteReg(PSP, 0x20001000)
T09E8 000:805.932 - 0.005ms returns 0x00
T09E8 000:805.936 JLINK_WriteReg(CFBP, 0x00000000)
T09E8 000:805.939 - 0.005ms returns 0x00
T09E8 000:805.947   JLINK_SetBPEx(Addr = 0x20000000, Type = 0xFFFFFFF2)
T09E8 000:805.954 - 0.009ms returns 0x0000000B
T09E8 000:805.958 JLINK_Go()
T09E8 000:805.968   CPU_ReadMem(4 bytes @ 0xE0001000)
T09E8 000:808.070 - 2.118ms
T09E8 000:808.082 JLINK_IsHalted()
T09E8 000:808.449 - 0.385ms returns FALSE
T09E8 000:828.239 JLINK_IsHalted()
T09E8 000:829.987   CPU_ReadMem(2 bytes @ 0x20000000)
T09E8 000:830.382 - 2.151ms returns TRUE
T09E8 000:830.397 JLINK_ReadReg(R15 (PC))
T09E8 000:830.405 - 0.010ms returns 0x20000000
T09E8 000:830.410 JLINK_ClrBPEx(BPHandle = 0x0000000B)
T09E8 000:830.415 - 0.006ms returns 0x00
T09E8 000:830.420 JLINK_ReadReg(R0)
T09E8 000:830.424 - 0.006ms returns 0x00000000
T09E8 000:830.896 JLINK_WriteMem(0x20000184, 0x027C Bytes, ...)
T09E8 000:830.903   Data:  00 00 00 00 00 00 00 00 00 00 00 00 00 00 00 00 ...
T09E8 000:830.916   CPU_WriteMem(636 bytes @ 0x20000184)
T09E8 000:834.614 - 3.725ms returns 0x27C
T09E8 000:834.628 JLINK_WriteMem(0x20000400, 0x0184 Bytes, ...)
T09E8 000:834.632   Data:  00 00 00 00 00 00 00 00 00 00 00 00 00 00 00 00 ...
T09E8 000:834.648   CPU_WriteMem(388 bytes @ 0x20000400)
T09E8 000:837.232 - 2.611ms returns 0x184
T09E8 000:837.248 JLINK_WriteReg(R0, 0x08001800)
T09E8 000:837.255 - 0.010ms returns 0x00
T09E8 000:837.259 JLINK_WriteReg(R1, 0x00000400)
T09E8 000:837.264 - 0.005ms returns 0x00
T09E8 000:837.268 JLINK_WriteReg(R2, 0x20000184)
T09E8 000:837.271 - 0.005ms returns 0x00
T09E8 000:837.275 JLINK_WriteReg(R3, 0x00000000)
T09E8 000:837.279 - 0.005ms returns 0x00
T09E8 000:837.284 JLINK_WriteReg(R4, 0x00000000)
T09E8 000:837.287 - 0.005ms returns 0x00
T09E8 000:837.291 JLINK_WriteReg(R5, 0x00000000)
T09E8 000:837.295 - 0.005ms returns 0x00
T09E8 000:837.299 JLINK_WriteReg(R6, 0x00000000)
T09E8 000:837.302 - 0.005ms returns 0x00
T09E8 000:837.306 JLINK_WriteReg(R7, 0x00000000)
T09E8 000:837.310 - 0.005ms returns 0x00
T09E8 000:837.317 JLINK_WriteReg(R8, 0x00000000)
T09E8 000:837.320 - 0.005ms returns 0x00
T09E8 000:837.324 JLINK_WriteReg(R9, 0x20000180)
T09E8 000:837.328 - 0.005ms returns 0x00
T09E8 000:837.332 JLINK_WriteReg(R10, 0x00000000)
T09E8 000:837.336 - 0.005ms returns 0x00
T09E8 000:837.340 JLINK_WriteReg(R11, 0x00000000)
T09E8 000:837.344 - 0.005ms returns 0x00
T09E8 000:837.348 JLINK_WriteReg(R12, 0x00000000)
T09E8 000:837.352 - 0.005ms returns 0x00
T09E8 000:837.356 JLINK_WriteReg(R13 (SP), 0x20001000)
T09E8 000:837.360 - 0.006ms returns 0x00
T09E8 000:837.364 JLINK_WriteReg(R14, 0x20000001)
T09E8 000:837.368 - 0.005ms returns 0x00
T09E8 000:837.372 JLINK_WriteReg(R15 (PC), 0x2000010C)
T09E8 000:837.375 - 0.005ms returns 0x00
T09E8 000:837.379 JLINK_WriteReg(XPSR, 0x01000000)
T09E8 000:837.383 - 0.005ms returns 0x00
T09E8 000:837.387 JLINK_WriteReg(MSP, 0x20001000)
T09E8 000:837.390 - 0.005ms returns 0x00
T09E8 000:837.394 JLINK_WriteReg(PSP, 0x20001000)
T09E8 000:837.398 - 0.005ms returns 0x00
T09E8 000:837.402 JLINK_WriteReg(CFBP, 0x00000000)
T09E8 000:837.405 - 0.005ms returns 0x00
T09E8 000:837.410   JLINK_SetBPEx(Addr = 0x20000000, Type = 0xFFFFFFF2)
T09E8 000:837.416 - 0.008ms returns 0x0000000C
T09E8 000:837.421 JLINK_Go()
T09E8 000:837.431   CPU_ReadMem(4 bytes @ 0xE0001000)
T09E8 000:839.550 - 2.138ms
T09E8 000:839.564 JLINK_IsHalted()
T09E8 000:839.821 - 0.262ms returns FALSE
T09E8 000:843.904 JLINK_IsHalted()
T09E8 000:845.601   CPU_ReadMem(2 bytes @ 0x20000000)
T09E8 000:845.957 - 2.055ms returns TRUE
T09E8 000:845.964 JLINK_ReadReg(R15 (PC))
T09E8 000:845.974 - 0.012ms returns 0x20000000
T09E8 000:845.979 JLINK_ClrBPEx(BPHandle = 0x0000000C)
T09E8 000:845.983 - 0.005ms returns 0x00
T09E8 000:845.988 JLINK_ReadReg(R0)
T09E8 000:845.992 - 0.005ms returns 0x00000000
T09E8 000:846.636 JLINK_WriteMem(0x20000184, 0x027C Bytes, ...)
T09E8 000:846.644   Data:  45 3E 14 42 7F 40 10 29 42 61 51 49 46 21 41 45 ...
T09E8 000:846.655   CPU_WriteMem(636 bytes @ 0x20000184)
T09E8 000:850.449 - 3.821ms returns 0x27C
T09E8 000:850.462 JLINK_WriteMem(0x20000400, 0x0184 Bytes, ...)
T09E8 000:850.470   Data:  FF FF FF FF FF FF FF FF FF FF FF FF FF FF FF FF ...
T09E8 000:850.483   CPU_WriteMem(388 bytes @ 0x20000400)
T09E8 000:853.075 - 2.616ms returns 0x184
T09E8 000:853.085 JLINK_WriteReg(R0, 0x08001C00)
T09E8 000:853.091 - 0.008ms returns 0x00
T09E8 000:853.095 JLINK_WriteReg(R1, 0x00000174)
T09E8 000:853.099 - 0.005ms returns 0x00
T09E8 000:853.103 JLINK_WriteReg(R2, 0x20000184)
T09E8 000:853.106 - 0.005ms returns 0x00
T09E8 000:853.110 JLINK_WriteReg(R3, 0x00000000)
T09E8 000:853.114 - 0.005ms returns 0x00
T09E8 000:853.118 JLINK_WriteReg(R4, 0x00000000)
T09E8 000:853.122 - 0.005ms returns 0x00
T09E8 000:853.126 JLINK_WriteReg(R5, 0x00000000)
T09E8 000:853.130 - 0.005ms returns 0x00
T09E8 000:853.134 JLINK_WriteReg(R6, 0x00000000)
T09E8 000:853.137 - 0.005ms returns 0x00
T09E8 000:853.141 JLINK_WriteReg(R7, 0x00000000)
T09E8 000:853.145 - 0.005ms returns 0x00
T09E8 000:853.149 JLINK_WriteReg(R8, 0x00000000)
T09E8 000:853.153 - 0.005ms returns 0x00
T09E8 000:853.157 JLINK_WriteReg(R9, 0x20000180)
T09E8 000:853.161 - 0.005ms returns 0x00
T09E8 000:853.165 JLINK_WriteReg(R10, 0x00000000)
T09E8 000:853.168 - 0.005ms returns 0x00
T09E8 000:853.173 JLINK_WriteReg(R11, 0x00000000)
T09E8 000:853.176 - 0.005ms returns 0x00
T09E8 000:853.180 JLINK_WriteReg(R12, 0x00000000)
T09E8 000:853.184 - 0.005ms returns 0x00
T09E8 000:853.188 JLINK_WriteReg(R13 (SP), 0x20001000)
T09E8 000:853.192 - 0.005ms returns 0x00
T09E8 000:853.196 JLINK_WriteReg(R14, 0x20000001)
T09E8 000:853.199 - 0.005ms returns 0x00
T09E8 000:853.203 JLINK_WriteReg(R15 (PC), 0x2000010C)
T09E8 000:853.207 - 0.005ms returns 0x00
T09E8 000:853.211 JLINK_WriteReg(XPSR, 0x01000000)
T09E8 000:853.215 - 0.005ms returns 0x00
T09E8 000:853.219 JLINK_WriteReg(MSP, 0x20001000)
T09E8 000:853.222 - 0.005ms returns 0x00
